             * c:\users\soham\desktop\digstairdown\digstairdown.cir
             Transient Analysis  Wed Apr 21 02:02:41  2021
--------------------------------------------------------------------------------
Index   time            a6#branch_1_0   a6#branch_1_1   a6#branch_1_2   
--------------------------------------------------------------------------------
0	0.000000e+000	0.000000e+000	0.000000e+000	0.000000e+000	
1	1.000000e-004	0.000000e+000	0.000000e+000	0.000000e+000	
2	2.000000e-004	0.000000e+000	0.000000e+000	0.000000e+000	
3	4.000000e-004	0.000000e+000	0.000000e+000	0.000000e+000	
4	8.000000e-004	0.000000e+000	0.000000e+000	0.000000e+000	
5	1.600000e-003	0.000000e+000	0.000000e+000	0.000000e+000	
6	3.200000e-003	0.000000e+000	0.000000e+000	0.000000e+000	
7	6.400000e-003	0.000000e+000	0.000000e+000	0.000000e+000	
8	6.400003e-003	0.000000e+000	0.000000e+000	0.000000e+000	
9	6.400003e-003	-1.67969e-005	3.906254e-006	1.562508e-006	
10	6.400003e-003	-5.03906e-005	1.171877e-005	4.687539e-006	
11	6.400004e-003	-8.41198e-005	1.956280e-005	7.825202e-006	
12	6.400004e-003	-1.24385e-004	2.892679e-005	1.157089e-005	
13	6.400004e-003	-1.67969e-004	3.906270e-005	1.562539e-005	
14	6.400004e-003	-1.67969e-004	3.906272e-005	1.562543e-005	
15	6.400004e-003	-1.67969e-004	3.906275e-005	1.562551e-005	
16	6.400004e-003	-1.67969e-004	3.906283e-005	1.562566e-005	
17	6.400005e-003	-1.67969e-004	3.906298e-005	1.562596e-005	
18	6.400005e-003	-1.67968e-004	3.906309e-005	1.562618e-005	
19	6.400005e-003	-1.64972e-004	2.587870e-005	1.802341e-005	
20	6.400005e-003	-1.58979e-004	-4.90052e-007	2.281790e-005	
21	6.400006e-003	-1.46993e-004	-5.32275e-005	3.240699e-005	
22	6.400006e-003	-1.32007e-004	-1.19166e-004	4.439657e-005	
23	6.400006e-003	-1.28906e-004	-1.32811e-004	4.687774e-005	
24	6.400006e-003	-1.28906e-004	-1.32811e-004	4.687792e-005	
25	6.400006e-003	-1.28905e-004	-1.32811e-004	4.687828e-005	
26	6.400007e-003	-1.28905e-004	-1.32810e-004	4.687900e-005	
27	6.400007e-003	-1.28905e-004	-1.32810e-004	4.688009e-005	
28	6.400007e-003	-1.27946e-004	-1.30892e-004	3.537095e-005	
29	6.400007e-003	-1.26028e-004	-1.27055e-004	1.235270e-005	
30	6.400007e-003	-1.22191e-004	-1.19382e-004	-3.36837e-005	
31	6.400008e-003	-1.14517e-004	-1.04035e-004	-1.25756e-004	
32	6.400008e-003	-1.13279e-004	-1.01558e-004	-1.40616e-004	
33	6.400008e-003	-1.13279e-004	-1.01558e-004	-1.40615e-004	
34	6.400008e-003	-1.13279e-004	-1.01557e-004	-1.40614e-004	
35	6.400009e-003	-1.13278e-004	-1.01556e-004	-1.40612e-004	
36	6.400009e-003	-1.13278e-004	-1.01555e-004	-1.40611e-004	
37	6.400009e-003	-1.13278e-004	-1.01555e-004	-1.40610e-004	
38	6.400009e-003	-1.13277e-004	-1.01555e-004	-1.40609e-004	
39	6.400010e-003	-1.13277e-004	-1.01553e-004	-1.40607e-004	
40	6.400010e-003	-1.13275e-004	-1.01551e-004	-1.40602e-004	
41	6.400010e-003	-1.13275e-004	-1.01551e-004	-1.40601e-004	
42	6.400010e-003	-1.13275e-004	-1.01550e-004	-1.40600e-004	
43	6.400010e-003	-1.13274e-004	-1.01548e-004	-1.40597e-004	
44	6.400011e-003	-1.13273e-004	-1.01546e-004	-1.40591e-004	
45	6.400012e-003	-1.13270e-004	-1.01540e-004	-1.40580e-004	
46	6.400014e-003	-1.13264e-004	-1.01528e-004	-1.40557e-004	
47	6.400018e-003	-1.13253e-004	-1.01506e-004	-1.40511e-004	
48	6.400026e-003	-1.13230e-004	-1.01460e-004	-1.40420e-004	
49	6.400041e-003	-1.13184e-004	-1.01369e-004	-1.40237e-004	
50	6.400072e-003	-1.13093e-004	-1.01187e-004	-1.39873e-004	
51	6.400135e-003	-1.12912e-004	-1.00824e-004	-1.39149e-004	
52	6.400260e-003	-1.12553e-004	-1.00106e-004	-1.37713e-004	
53	6.400509e-003	-1.11849e-004	-9.86971e-005	-1.34894e-004	
54	6.401009e-003	-1.10491e-004	-9.59815e-005	-1.29463e-004	

Index   time            a6#branch_1_0   a6#branch_1_1   a6#branch_1_2   
--------------------------------------------------------------------------------
55	6.402008e-003	-1.07969e-004	-9.09378e-005	-1.19376e-004	
56	6.404006e-003	-1.03612e-004	-8.22246e-005	-1.01949e-004	
57	6.407723e-003	-9.74601e-005	-6.99202e-005	-7.73405e-005	
58	6.411599e-003	-9.30843e-005	-6.11686e-005	-5.98372e-005	
59	6.416748e-003	-8.93583e-005	-5.37166e-005	-4.49331e-005	
60	6.422140e-003	-8.70760e-005	-4.91520e-005	-3.58041e-005	
61	6.429304e-003	-8.54453e-005	-4.58906e-005	-2.92812e-005	
62	6.437297e-003	-8.46110e-005	-4.42219e-005	-2.59438e-005	
63	6.448192e-003	-8.41690e-005	-4.33381e-005	-2.41761e-005	
64	6.461450e-003	-8.40218e-005	-4.30436e-005	-2.35873e-005	
65	6.481309e-003	-8.39845e-005	-4.29690e-005	-2.34380e-005	
66	6.510083e-003	-8.39844e-005	-4.29687e-005	-2.34374e-005	
67	6.566204e-003	-8.39844e-005	-4.29688e-005	-2.34375e-005	
68	6.678446e-003	-8.39844e-005	-4.29687e-005	-2.34375e-005	
69	6.902930e-003	-8.39844e-005	-4.29688e-005	-2.34375e-005	
70	7.351899e-003	-8.39844e-005	-4.29687e-005	-2.34375e-005	
71	8.249836e-003	-8.39844e-005	-4.29688e-005	-2.34375e-005	
72	1.004571e-002	-8.39844e-005	-4.29687e-005	-2.34375e-005	
73	1.363746e-002	-8.39844e-005	-4.29688e-005	-2.34375e-005	
74	1.500000e-002	-8.39844e-005	-4.29687e-005	-2.34375e-005	
75	1.571835e-002	-8.39844e-005	-4.29687e-005	-2.34375e-005	
76	1.715505e-002	-8.39844e-005	-4.29688e-005	-2.34375e-005	
77	2.002845e-002	-8.39844e-005	-4.29687e-005	-2.34375e-005	
78	2.577525e-002	-8.39844e-005	-4.29688e-005	-2.34375e-005	
79	2.577525e-002	-8.39844e-005	-4.29688e-005	-2.34375e-005	
80	2.577525e-002	-6.71875e-005	-4.68750e-005	-2.50000e-005	
81	2.577525e-002	-3.35938e-005	-5.46875e-005	-2.81250e-005	
82	2.577525e-002	3.359370e-005	-7.03126e-005	-3.43752e-005	
83	2.577525e-002	8.398428e-005	-8.20314e-005	-3.90629e-005	
84	2.577525e-002	8.398426e-005	-8.20315e-005	-3.90630e-005	
85	2.577525e-002	8.398423e-005	-8.20315e-005	-3.90631e-005	
86	2.577525e-002	8.398417e-005	-8.20317e-005	-3.90633e-005	
87	2.577525e-002	8.398404e-005	-8.20319e-005	-3.90638e-005	
88	2.577526e-002	8.398379e-005	-8.20324e-005	-3.90648e-005	
89	2.577526e-002	8.398329e-005	-8.20334e-005	-3.90668e-005	
90	2.577526e-002	8.398229e-005	-8.20354e-005	-3.90708e-005	
91	2.577527e-002	8.398030e-005	-8.20394e-005	-3.90788e-005	
92	2.577529e-002	8.397631e-005	-8.20474e-005	-3.90948e-005	
93	2.577534e-002	8.396836e-005	-8.20633e-005	-3.91266e-005	
94	2.577542e-002	8.395255e-005	-8.20949e-005	-3.91898e-005	
95	2.577558e-002	8.392133e-005	-8.21573e-005	-3.93147e-005	
96	2.577591e-002	8.386040e-005	-8.22792e-005	-3.95584e-005	
97	2.577656e-002	8.374432e-005	-8.25114e-005	-4.00227e-005	
98	2.577787e-002	8.353360e-005	-8.29328e-005	-4.08656e-005	
99	2.578050e-002	8.318540e-005	-8.36292e-005	-4.22584e-005	
100	2.578574e-002	8.270597e-005	-8.45881e-005	-4.41761e-005	
101	2.579622e-002	8.224182e-005	-8.55164e-005	-4.60327e-005	
102	2.581235e-002	8.205382e-005	-8.58924e-005	-4.67847e-005	
103	2.583154e-002	8.203172e-005	-8.59366e-005	-4.68731e-005	
104	2.586061e-002	8.203116e-005	-8.59377e-005	-4.68753e-005	
105	2.591211e-002	8.203129e-005	-8.59374e-005	-4.68748e-005	
106	2.601511e-002	8.203122e-005	-8.59376e-005	-4.68751e-005	
107	2.622111e-002	8.203127e-005	-8.59375e-005	-4.68749e-005	
108	2.663312e-002	8.203123e-005	-8.59375e-005	-4.68751e-005	
109	2.745713e-002	8.203127e-005	-8.59375e-005	-4.68749e-005	
110	2.910517e-002	8.203123e-005	-8.59375e-005	-4.68751e-005	
111	3.000000e-002	8.203127e-005	-8.59375e-005	-4.68749e-005	
112	3.032961e-002	8.203125e-005	-8.59375e-005	-4.68750e-005	

Index   time            a6#branch_1_0   a6#branch_1_1   a6#branch_1_2   
--------------------------------------------------------------------------------
113	3.098882e-002	8.203125e-005	-8.59375e-005	-4.68750e-005	
114	3.230724e-002	8.203125e-005	-8.59375e-005	-4.68750e-005	
115	3.494409e-002	8.203125e-005	-8.59375e-005	-4.68750e-005	
116	4.021779e-002	8.203125e-005	-8.59375e-005	-4.68750e-005	
117	4.021779e-002	8.203125e-005	-8.59375e-005	-4.68750e-005	
118	4.021779e-002	6.523438e-005	-8.20312e-005	-4.53125e-005	
119	4.021779e-002	3.164063e-005	-7.42187e-005	-4.21875e-005	
120	4.021779e-002	-3.55468e-005	-5.85937e-005	-3.59373e-005	
121	4.021779e-002	-8.59374e-005	-4.68748e-005	-3.12496e-005	
122	4.021779e-002	-8.59374e-005	-4.68748e-005	-3.12495e-005	
123	4.021779e-002	-8.59374e-005	-4.68747e-005	-3.12494e-005	
124	4.021779e-002	-8.59373e-005	-4.68746e-005	-3.12492e-005	
125	4.021779e-002	-8.59372e-005	-4.68744e-005	-3.12488e-005	
126	4.021779e-002	-8.84372e-005	-3.58744e-005	-3.32488e-005	
127	4.021779e-002	-9.34372e-005	-1.38744e-005	-3.72487e-005	
128	4.021779e-002	-1.03437e-004	3.012568e-005	-4.52486e-005	
129	4.021779e-002	-1.23437e-004	1.181256e-004	-6.12488e-005	
130	4.021779e-002	-1.25000e-004	1.250006e-004	-6.24988e-005	
131	4.021779e-002	-1.25000e-004	1.250006e-004	-6.24989e-005	
132	4.021779e-002	-1.25000e-004	1.250005e-004	-6.24990e-005	
133	4.021779e-002	-1.25000e-004	1.250004e-004	-6.24993e-005	
134	4.021779e-002	-1.25000e-004	1.250001e-004	-6.24998e-005	
135	4.021779e-002	-1.25000e-004	1.249996e-004	-6.25008e-005	
136	4.021780e-002	-1.25001e-004	1.249986e-004	-6.25028e-005	
137	4.021780e-002	-1.25002e-004	1.249966e-004	-6.25068e-005	
138	4.021781e-002	-1.25004e-004	1.249926e-004	-6.25147e-005	
139	4.021783e-002	-1.25008e-004	1.249846e-004	-6.25307e-005	
140	4.021787e-002	-1.25016e-004	1.249687e-004	-6.25625e-005	
141	4.021796e-002	-1.25031e-004	1.249371e-004	-6.26257e-005	
142	4.021812e-002	-1.25063e-004	1.248747e-004	-6.27507e-005	
143	4.021845e-002	-1.25124e-004	1.247528e-004	-6.29944e-005	
144	4.021910e-002	-1.25240e-004	1.245206e-004	-6.34588e-005	
145	4.022041e-002	-1.25450e-004	1.240990e-004	-6.43019e-005	
146	4.022304e-002	-1.25799e-004	1.234025e-004	-6.56950e-005	
147	4.022828e-002	-1.26278e-004	1.224435e-004	-6.76131e-005	
148	4.023876e-002	-1.26743e-004	1.215150e-004	-6.94700e-005	
149	4.025432e-002	-1.26927e-004	1.211464e-004	-7.02071e-005	
150	4.027308e-002	-1.26952e-004	1.210954e-004	-7.03091e-005	
151	4.030092e-002	-1.26953e-004	1.210935e-004	-7.03131e-005	
152	4.035046e-002	-1.26953e-004	1.210939e-004	-7.03123e-005	
153	4.044953e-002	-1.26953e-004	1.210937e-004	-7.03127e-005	
154	4.064768e-002	-1.26953e-004	1.210938e-004	-7.03124e-005	
155	4.104398e-002	-1.26953e-004	1.210937e-004	-7.03126e-005	
156	4.183657e-002	-1.26953e-004	1.210938e-004	-7.03124e-005	
157	4.342175e-002	-1.26953e-004	1.210937e-004	-7.03126e-005	
158	4.500000e-002	-1.26953e-004	1.210938e-004	-7.03124e-005	
159	4.531704e-002	-1.26953e-004	1.210938e-004	-7.03125e-005	
160	4.595111e-002	-1.26953e-004	1.210937e-004	-7.03125e-005	
161	4.721926e-002	-1.26953e-004	1.210938e-004	-7.03125e-005	
162	4.975555e-002	-1.26953e-004	1.210937e-004	-7.03125e-005	
163	5.482813e-002	-1.26953e-004	1.210938e-004	-7.03125e-005	
164	5.482814e-002	-1.26953e-004	1.210938e-004	-7.03125e-005	
165	5.482814e-002	-1.10156e-004	1.171875e-004	-7.18750e-005	
166	5.482814e-002	-7.65625e-005	1.093750e-004	-7.50000e-005	
167	5.482814e-002	-9.37505e-006	9.374990e-005	-8.12502e-005	
168	5.482814e-002	4.101553e-005	8.203105e-005	-8.59379e-005	
169	5.482814e-002	4.101551e-005	8.203102e-005	-8.59380e-005	
170	5.482814e-002	4.101548e-005	8.203096e-005	-8.59381e-005	

Index   time            a6#branch_1_0   a6#branch_1_1   a6#branch_1_2   
--------------------------------------------------------------------------------
171	5.482814e-002	4.101542e-005	8.203084e-005	-8.59383e-005	
172	5.482814e-002	4.101529e-005	8.203059e-005	-8.59388e-005	
173	5.482814e-002	4.101504e-005	8.203009e-005	-8.59398e-005	
174	5.482814e-002	4.101454e-005	8.202909e-005	-8.59418e-005	
175	5.482815e-002	4.101354e-005	8.202709e-005	-8.59458e-005	
176	5.482816e-002	4.101155e-005	8.202309e-005	-8.59538e-005	
177	5.482818e-002	4.100756e-005	8.201512e-005	-8.59698e-005	
178	5.482822e-002	4.099961e-005	8.199922e-005	-8.60016e-005	
179	5.482830e-002	4.098380e-005	8.196761e-005	-8.60648e-005	
180	5.482846e-002	4.095258e-005	8.190516e-005	-8.61897e-005	
181	5.482879e-002	4.089165e-005	8.178329e-005	-8.64334e-005	
182	5.482945e-002	4.077557e-005	8.155115e-005	-8.68977e-005	
183	5.483076e-002	4.056485e-005	8.112970e-005	-8.77406e-005	
184	5.483338e-002	4.021666e-005	8.043331e-005	-8.91334e-005	
185	5.483862e-002	3.973723e-005	7.947445e-005	-9.10511e-005	
186	5.484911e-002	3.927307e-005	7.854615e-005	-9.29077e-005	
187	5.486407e-002	3.909285e-005	7.818571e-005	-9.36286e-005	
188	5.488239e-002	3.906383e-005	7.812765e-005	-9.37447e-005	
189	5.490898e-002	3.906231e-005	7.812463e-005	-9.37507e-005	
190	5.495652e-002	3.906258e-005	7.812515e-005	-9.37497e-005	
191	5.505159e-002	3.906245e-005	7.812490e-005	-9.37502e-005	
192	5.524174e-002	3.906254e-005	7.812508e-005	-9.37498e-005	
193	5.562203e-002	3.906246e-005	7.812493e-005	-9.37501e-005	
194	5.638262e-002	3.906253e-005	7.812507e-005	-9.37499e-005	
195	5.790380e-002	3.906247e-005	7.812493e-005	-9.37501e-005	
196	6.000000e-002	3.906253e-005	7.812507e-005	-9.37499e-005	
197	6.030424e-002	3.906250e-005	7.812500e-005	-9.37500e-005	
198	6.091271e-002	3.906250e-005	7.812500e-005	-9.37500e-005	
199	6.212965e-002	3.906250e-005	7.812500e-005	-9.37500e-005	
200	6.456353e-002	3.906250e-005	7.812500e-005	-9.37500e-005	
201	6.943130e-002	3.906250e-005	7.812500e-005	-9.37500e-005	
202	6.943131e-002	3.906250e-005	7.812500e-005	-9.37500e-005	
203	6.943131e-002	2.226563e-005	8.203126e-005	-9.21875e-005	
204	6.943131e-002	-1.13281e-005	8.984377e-005	-8.90625e-005	
205	6.943131e-002	-7.85156e-005	1.054688e-004	-8.28123e-005	
206	6.943131e-002	-1.28906e-004	1.171877e-004	-7.81246e-005	
207	6.943131e-002	-1.28906e-004	1.171877e-004	-7.81245e-005	
208	6.943131e-002	-1.28906e-004	1.171878e-004	-7.81244e-005	
209	6.943131e-002	-1.28906e-004	1.171879e-004	-7.81242e-005	
210	6.943131e-002	-1.28906e-004	1.171881e-004	-7.81238e-005	
211	6.943131e-002	-1.26406e-004	1.061881e-004	-7.61238e-005	
212	6.943131e-002	-1.21406e-004	8.418818e-005	-7.21236e-005	
213	6.943131e-002	-1.11406e-004	4.018834e-005	-6.41233e-005	
214	6.943131e-002	-9.14056e-005	-4.78112e-005	-4.81223e-005	
215	6.943131e-002	-8.98431e-005	-5.46861e-005	-4.68723e-005	
216	6.943131e-002	-8.98430e-005	-5.46860e-005	-4.68721e-005	
217	6.943131e-002	-8.98429e-005	-5.46858e-005	-4.68717e-005	
218	6.943131e-002	-8.98427e-005	-5.46855e-005	-4.68709e-005	
219	6.943131e-002	-8.98425e-005	-5.46850e-005	-4.68699e-005	
220	6.943131e-002	-9.08424e-005	-5.66849e-005	-3.48698e-005	
221	6.943131e-002	-9.28424e-005	-6.06848e-005	-1.08695e-005	
222	6.943131e-002	-9.68423e-005	-6.86846e-005	3.713083e-005	
223	6.943131e-002	-1.04842e-004	-8.46846e-005	1.331309e-004	
224	6.943131e-002	-1.05467e-004	-8.59346e-005	1.406309e-004	
225	6.943131e-002	-1.05467e-004	-8.59346e-005	1.406308e-004	
226	6.943131e-002	-1.05467e-004	-8.59347e-005	1.406307e-004	
227	6.943131e-002	-1.05467e-004	-8.59348e-005	1.406304e-004	
228	6.943131e-002	-1.05468e-004	-8.59350e-005	1.406299e-004	

Index   time            a6#branch_1_0   a6#branch_1_1   a6#branch_1_2   
--------------------------------------------------------------------------------
229	6.943131e-002	-1.05468e-004	-8.59355e-005	1.406289e-004	
230	6.943132e-002	-1.05468e-004	-8.59365e-005	1.406269e-004	
231	6.943132e-002	-1.05469e-004	-8.59385e-005	1.406229e-004	
232	6.943133e-002	-1.05471e-004	-8.59425e-005	1.406149e-004	
233	6.943135e-002	-1.05475e-004	-8.59505e-005	1.405990e-004	
234	6.943139e-002	-1.05483e-004	-8.59664e-005	1.405671e-004	
235	6.943148e-002	-1.05499e-004	-8.59981e-005	1.405039e-004	
236	6.943164e-002	-1.05530e-004	-8.60606e-005	1.403789e-004	
237	6.943197e-002	-1.05591e-004	-8.61825e-005	1.401349e-004	
238	6.943262e-002	-1.05707e-004	-8.64149e-005	1.396703e-004	
239	6.943393e-002	-1.05918e-004	-8.68366e-005	1.388267e-004	
240	6.943655e-002	-1.06267e-004	-8.75336e-005	1.374328e-004	
241	6.944180e-002	-1.06747e-004	-8.84932e-005	1.355136e-004	
242	6.945228e-002	-1.07211e-004	-8.94223e-005	1.336555e-004	
243	6.946662e-002	-1.07387e-004	-8.97742e-005	1.329515e-004	
244	6.948448e-002	-1.07420e-004	-8.98398e-005	1.328204e-004	
245	6.950975e-002	-1.07422e-004	-8.98442e-005	1.328116e-004	
246	6.955521e-002	-1.07422e-004	-8.98436e-005	1.328129e-004	
247	6.964613e-002	-1.07422e-004	-8.98439e-005	1.328123e-004	
248	6.982798e-002	-1.07422e-004	-8.98437e-005	1.328127e-004	
249	7.019166e-002	-1.07422e-004	-8.98438e-005	1.328123e-004	
250	7.091902e-002	-1.07422e-004	-8.98437e-005	1.328127e-004	
251	7.237374e-002	-1.07422e-004	-8.98438e-005	1.328123e-004	
252	7.500000e-002	-1.07422e-004	-8.98437e-005	1.328126e-004	
253	7.529094e-002	-1.07422e-004	-8.98437e-005	1.328125e-004	
254	7.587283e-002	-1.07422e-004	-8.98438e-005	1.328125e-004	
255	7.703661e-002	-1.07422e-004	-8.98437e-005	1.328125e-004	
256	7.936417e-002	-1.07422e-004	-8.98438e-005	1.328125e-004	
257	8.401929e-002	-1.07422e-004	-8.98437e-005	1.328125e-004	
258	8.401929e-002	-1.07422e-004	-8.98437e-005	1.328125e-004	
259	8.401929e-002	-9.06250e-005	-9.37500e-005	1.312500e-004	
260	8.401930e-002	-5.70313e-005	-1.01563e-004	1.281250e-004	
261	8.401930e-002	1.015620e-005	-1.17188e-004	1.218748e-004	
262	8.401930e-002	6.054678e-005	-1.28906e-004	1.171871e-004	
263	8.401930e-002	6.054676e-005	-1.28906e-004	1.171870e-004	
264	8.401930e-002	6.054673e-005	-1.28907e-004	1.171869e-004	
265	8.401930e-002	6.054667e-005	-1.28907e-004	1.171867e-004	
266	8.401930e-002	6.054654e-005	-1.28907e-004	1.171862e-004	
267	8.401930e-002	6.054629e-005	-1.28907e-004	1.171852e-004	
268	8.401930e-002	6.054579e-005	-1.28908e-004	1.171832e-004	
269	8.401931e-002	6.054479e-005	-1.28910e-004	1.171792e-004	
270	8.401932e-002	6.054280e-005	-1.28914e-004	1.171712e-004	
271	8.401934e-002	6.053881e-005	-1.28922e-004	1.171552e-004	
272	8.401938e-002	6.053086e-005	-1.28938e-004	1.171234e-004	
273	8.401946e-002	6.051506e-005	-1.28970e-004	1.170602e-004	
274	8.401962e-002	6.048383e-005	-1.29032e-004	1.169353e-004	
275	8.401995e-002	6.042290e-005	-1.29154e-004	1.166916e-004	
276	8.402061e-002	6.030682e-005	-1.29386e-004	1.162273e-004	
277	8.402192e-002	6.009610e-005	-1.29808e-004	1.153844e-004	
278	8.402454e-002	5.974791e-005	-1.30504e-004	1.139916e-004	
279	8.402978e-002	5.926848e-005	-1.31463e-004	1.120739e-004	
280	8.404027e-002	5.880432e-005	-1.32391e-004	1.102173e-004	
281	8.405396e-002	5.863315e-005	-1.32734e-004	1.095326e-004	
282	8.407134e-002	5.859652e-005	-1.32807e-004	1.093861e-004	
283	8.409529e-002	5.859350e-005	-1.32813e-004	1.093740e-004	
284	8.413865e-002	5.859384e-005	-1.32812e-004	1.093754e-004	
285	8.422537e-002	5.859369e-005	-1.32813e-004	1.093748e-004	
286	8.439880e-002	5.859380e-005	-1.32812e-004	1.093752e-004	

Index   time            a6#branch_1_0   a6#branch_1_1   a6#branch_1_2   
--------------------------------------------------------------------------------
287	8.474568e-002	5.859371e-005	-1.32813e-004	1.093748e-004	
288	8.543944e-002	5.859379e-005	-1.32812e-004	1.093752e-004	
289	8.682694e-002	5.859371e-005	-1.32813e-004	1.093749e-004	
290	8.960196e-002	5.859379e-005	-1.32812e-004	1.093751e-004	
291	9.000000e-002	5.859372e-005	-1.32813e-004	1.093749e-004	
292	9.055500e-002	5.859375e-005	-1.32813e-004	1.093750e-004	
293	9.166501e-002	5.859375e-005	-1.32812e-004	1.093750e-004	
294	9.388502e-002	5.859375e-005	-1.32813e-004	1.093750e-004	
295	9.832505e-002	5.859375e-005	-1.32812e-004	1.093750e-004	
296	9.832505e-002	5.859375e-005	-1.32812e-004	1.093750e-004	
297	9.832505e-002	4.179688e-005	-1.28906e-004	1.109375e-004	
298	9.832505e-002	8.203136e-006	-1.21094e-004	1.140625e-004	
299	9.832505e-002	-5.89843e-005	-1.05469e-004	1.203127e-004	
300	9.832505e-002	-1.09375e-004	-9.37498e-005	1.250004e-004	
301	9.832505e-002	-1.09375e-004	-9.37498e-005	1.250005e-004	
302	9.832505e-002	-1.09375e-004	-9.37497e-005	1.250006e-004	
303	9.832505e-002	-1.09375e-004	-9.37496e-005	1.250008e-004	
304	9.832505e-002	-1.09375e-004	-9.37494e-005	1.250012e-004	
