             * c:\users\soham\desktop\digstairdown\digstairdown.cir
             Transient Analysis  Wed Apr 21 02:02:41  2021
--------------------------------------------------------------------------------
Index   time            ?               gnd             net-_r2-pad2_   
--------------------------------------------------------------------------------
0	0.000000e+000	0.000000e+000	0.000000e+000	0.000000e+000	
1	1.000000e-004	3.333333e-002	0.000000e+000	0.000000e+000	
2	2.000000e-004	6.666667e-002	0.000000e+000	0.000000e+000	
3	4.000000e-004	1.333333e-001	0.000000e+000	0.000000e+000	
4	8.000000e-004	2.666667e-001	0.000000e+000	0.000000e+000	
5	1.600000e-003	5.333333e-001	0.000000e+000	0.000000e+000	
6	3.200000e-003	1.066667e+000	0.000000e+000	0.000000e+000	
7	6.400000e-003	2.133333e+000	0.000000e+000	0.000000e+000	
8	6.400003e-003	2.133334e+000	0.000000e+000	0.000000e+000	
9	6.400003e-003	2.133334e+000	0.000000e+000	5.000000e-001	
10	6.400003e-003	2.133334e+000	0.000000e+000	1.500000e+000	
11	6.400004e-003	2.133335e+000	0.000000e+000	2.504032e+000	
12	6.400004e-003	2.133335e+000	0.000000e+000	3.702616e+000	
13	6.400004e-003	2.133335e+000	0.000000e+000	5.000000e+000	
14	6.400004e-003	2.133335e+000	0.000000e+000	5.000000e+000	
15	6.400004e-003	2.133335e+000	0.000000e+000	5.000000e+000	
16	6.400004e-003	2.133335e+000	0.000000e+000	5.000000e+000	
17	6.400005e-003	2.133335e+000	0.000000e+000	5.000000e+000	
18	6.400005e-003	2.133335e+000	0.000000e+000	5.000000e+000	
19	6.400005e-003	2.133335e+000	0.000000e+000	5.000000e+000	
20	6.400005e-003	2.133335e+000	0.000000e+000	5.000000e+000	
21	6.400006e-003	2.133335e+000	0.000000e+000	5.000000e+000	
22	6.400006e-003	2.133335e+000	0.000000e+000	5.000000e+000	
23	6.400006e-003	2.133335e+000	0.000000e+000	5.000000e+000	
24	6.400006e-003	2.133335e+000	0.000000e+000	5.000000e+000	
25	6.400006e-003	2.133335e+000	0.000000e+000	5.000000e+000	
26	6.400007e-003	2.133336e+000	0.000000e+000	5.000000e+000	
27	6.400007e-003	2.133336e+000	0.000000e+000	5.000000e+000	
28	6.400007e-003	2.133336e+000	0.000000e+000	5.000000e+000	
29	6.400007e-003	2.133336e+000	0.000000e+000	5.000000e+000	
30	6.400007e-003	2.133336e+000	0.000000e+000	5.000000e+000	
31	6.400008e-003	2.133336e+000	0.000000e+000	5.000000e+000	
32	6.400008e-003	2.133336e+000	0.000000e+000	5.000000e+000	
33	6.400008e-003	2.133336e+000	0.000000e+000	5.000000e+000	
34	6.400008e-003	2.133336e+000	0.000000e+000	5.000000e+000	
35	6.400009e-003	2.133336e+000	0.000000e+000	5.000000e+000	
36	6.400009e-003	2.133336e+000	0.000000e+000	5.000000e+000	
37	6.400009e-003	2.133336e+000	0.000000e+000	5.000000e+000	
38	6.400009e-003	2.133336e+000	0.000000e+000	5.000000e+000	
39	6.400010e-003	2.133337e+000	0.000000e+000	5.000000e+000	
40	6.400010e-003	2.133337e+000	0.000000e+000	5.000000e+000	
41	6.400010e-003	2.133337e+000	0.000000e+000	5.000000e+000	
42	6.400010e-003	2.133337e+000	0.000000e+000	5.000000e+000	
43	6.400010e-003	2.133337e+000	0.000000e+000	5.000000e+000	
44	6.400011e-003	2.133337e+000	0.000000e+000	5.000000e+000	
45	6.400012e-003	2.133337e+000	0.000000e+000	5.000000e+000	
46	6.400014e-003	2.133338e+000	0.000000e+000	5.000000e+000	
47	6.400018e-003	2.133339e+000	0.000000e+000	5.000000e+000	
48	6.400026e-003	2.133342e+000	0.000000e+000	5.000000e+000	
49	6.400041e-003	2.133347e+000	0.000000e+000	5.000000e+000	
50	6.400072e-003	2.133357e+000	0.000000e+000	5.000000e+000	
51	6.400135e-003	2.133378e+000	0.000000e+000	5.000000e+000	
52	6.400260e-003	2.133420e+000	0.000000e+000	5.000000e+000	
53	6.400509e-003	2.133503e+000	0.000000e+000	5.000000e+000	
54	6.401009e-003	2.133670e+000	0.000000e+000	5.000000e+000	

Index   time            ?               gnd             net-_r2-pad2_   
--------------------------------------------------------------------------------
55	6.402008e-003	2.134003e+000	0.000000e+000	5.000000e+000	
56	6.404006e-003	2.134669e+000	0.000000e+000	5.000000e+000	
57	6.407723e-003	2.135908e+000	0.000000e+000	5.000000e+000	
58	6.411599e-003	2.137200e+000	0.000000e+000	5.000000e+000	
59	6.416748e-003	2.138916e+000	0.000000e+000	5.000000e+000	
60	6.422140e-003	2.140713e+000	0.000000e+000	5.000000e+000	
61	6.429304e-003	2.143101e+000	0.000000e+000	5.000000e+000	
62	6.437297e-003	2.145766e+000	0.000000e+000	5.000000e+000	
63	6.448192e-003	2.149397e+000	0.000000e+000	5.000000e+000	
64	6.461450e-003	2.153817e+000	0.000000e+000	5.000000e+000	
65	6.481309e-003	2.160436e+000	0.000000e+000	5.000000e+000	
66	6.510083e-003	2.170028e+000	0.000000e+000	5.000000e+000	
67	6.566204e-003	2.188735e+000	0.000000e+000	5.000000e+000	
68	6.678446e-003	2.226149e+000	0.000000e+000	5.000000e+000	
69	6.902930e-003	2.300977e+000	0.000000e+000	5.000000e+000	
70	7.351899e-003	2.450633e+000	0.000000e+000	5.000000e+000	
71	8.249836e-003	2.749945e+000	0.000000e+000	5.000000e+000	
72	1.004571e-002	3.348570e+000	0.000000e+000	5.000000e+000	
73	1.363746e-002	4.545820e+000	0.000000e+000	5.000000e+000	
74	1.500000e-002	5.000000e+000	0.000000e+000	5.000000e+000	
75	1.571835e-002	2.394500e-001	0.000000e+000	5.000000e+000	
76	1.715505e-002	7.183500e-001	0.000000e+000	5.000000e+000	
77	2.002845e-002	1.676150e+000	0.000000e+000	5.000000e+000	
78	2.577525e-002	3.591750e+000	0.000000e+000	5.000000e+000	
79	2.577525e-002	3.591751e+000	0.000000e+000	5.000000e+000	
80	2.577525e-002	3.591751e+000	0.000000e+000	4.500000e+000	
81	2.577525e-002	3.591751e+000	0.000000e+000	3.500000e+000	
82	2.577525e-002	3.591751e+000	0.000000e+000	1.500000e+000	
83	2.577525e-002	3.591751e+000	0.000000e+000	2.631785e-009	
84	2.577525e-002	3.591751e+000	0.000000e+000	0.000000e+000	
85	2.577525e-002	3.591751e+000	0.000000e+000	0.000000e+000	
86	2.577525e-002	3.591751e+000	0.000000e+000	0.000000e+000	
87	2.577525e-002	3.591752e+000	0.000000e+000	0.000000e+000	
88	2.577526e-002	3.591752e+000	0.000000e+000	0.000000e+000	
89	2.577526e-002	3.591753e+000	0.000000e+000	0.000000e+000	
90	2.577526e-002	3.591755e+000	0.000000e+000	0.000000e+000	
91	2.577527e-002	3.591758e+000	0.000000e+000	0.000000e+000	
92	2.577529e-002	3.591765e+000	0.000000e+000	0.000000e+000	
93	2.577534e-002	3.591778e+000	0.000000e+000	0.000000e+000	
94	2.577542e-002	3.591806e+000	0.000000e+000	0.000000e+000	
95	2.577558e-002	3.591860e+000	0.000000e+000	0.000000e+000	
96	2.577591e-002	3.591970e+000	0.000000e+000	0.000000e+000	
97	2.577656e-002	3.592188e+000	0.000000e+000	0.000000e+000	
98	2.577787e-002	3.592625e+000	0.000000e+000	0.000000e+000	
99	2.578050e-002	3.593499e+000	0.000000e+000	0.000000e+000	
100	2.578574e-002	3.595246e+000	0.000000e+000	0.000000e+000	
101	2.579622e-002	3.598742e+000	0.000000e+000	0.000000e+000	
102	2.581235e-002	3.604117e+000	0.000000e+000	0.000000e+000	
103	2.583154e-002	3.610513e+000	0.000000e+000	0.000000e+000	
104	2.586061e-002	3.620202e+000	0.000000e+000	0.000000e+000	
105	2.591211e-002	3.637369e+000	0.000000e+000	0.000000e+000	
106	2.601511e-002	3.671703e+000	0.000000e+000	0.000000e+000	
107	2.622111e-002	3.740371e+000	0.000000e+000	0.000000e+000	
108	2.663312e-002	3.877707e+000	0.000000e+000	0.000000e+000	
109	2.745713e-002	4.152378e+000	0.000000e+000	0.000000e+000	
110	2.910517e-002	4.701722e+000	0.000000e+000	0.000000e+000	
111	3.000000e-002	0.000000e+000	0.000000e+000	0.000000e+000	
112	3.032961e-002	1.098687e-001	0.000000e+000	0.000000e+000	

Index   time            ?               gnd             net-_r2-pad2_   
--------------------------------------------------------------------------------
113	3.098882e-002	3.296060e-001	0.000000e+000	0.000000e+000	
114	3.230724e-002	7.690807e-001	0.000000e+000	0.000000e+000	
115	3.494409e-002	1.648030e+000	0.000000e+000	0.000000e+000	
116	4.021779e-002	3.405929e+000	0.000000e+000	0.000000e+000	
117	4.021779e-002	3.405930e+000	0.000000e+000	0.000000e+000	
118	4.021779e-002	3.405930e+000	0.000000e+000	5.000000e-001	
119	4.021779e-002	3.405930e+000	0.000000e+000	1.500000e+000	
120	4.021779e-002	3.405930e+000	0.000000e+000	3.500000e+000	
121	4.021779e-002	3.405930e+000	0.000000e+000	5.000000e+000	
122	4.021779e-002	3.405930e+000	0.000000e+000	5.000000e+000	
123	4.021779e-002	3.405930e+000	0.000000e+000	5.000000e+000	
124	4.021779e-002	3.405930e+000	0.000000e+000	5.000000e+000	
125	4.021779e-002	3.405930e+000	0.000000e+000	5.000000e+000	
126	4.021779e-002	3.405930e+000	0.000000e+000	5.000000e+000	
127	4.021779e-002	3.405931e+000	0.000000e+000	5.000000e+000	
128	4.021779e-002	3.405931e+000	0.000000e+000	5.000000e+000	
129	4.021779e-002	3.405931e+000	0.000000e+000	5.000000e+000	
130	4.021779e-002	3.405931e+000	0.000000e+000	5.000000e+000	
131	4.021779e-002	3.405931e+000	0.000000e+000	5.000000e+000	
132	4.021779e-002	3.405931e+000	0.000000e+000	5.000000e+000	
133	4.021779e-002	3.405931e+000	0.000000e+000	5.000000e+000	
134	4.021779e-002	3.405931e+000	0.000000e+000	5.000000e+000	
135	4.021779e-002	3.405932e+000	0.000000e+000	5.000000e+000	
136	4.021780e-002	3.405932e+000	0.000000e+000	5.000000e+000	
137	4.021780e-002	3.405934e+000	0.000000e+000	5.000000e+000	
138	4.021781e-002	3.405938e+000	0.000000e+000	5.000000e+000	
139	4.021783e-002	3.405944e+000	0.000000e+000	5.000000e+000	
140	4.021787e-002	3.405958e+000	0.000000e+000	5.000000e+000	
141	4.021796e-002	3.405985e+000	0.000000e+000	5.000000e+000	
142	4.021812e-002	3.406040e+000	0.000000e+000	5.000000e+000	
143	4.021845e-002	3.406149e+000	0.000000e+000	5.000000e+000	
144	4.021910e-002	3.406368e+000	0.000000e+000	5.000000e+000	
145	4.022041e-002	3.406805e+000	0.000000e+000	5.000000e+000	
146	4.022304e-002	3.407678e+000	0.000000e+000	5.000000e+000	
147	4.022828e-002	3.409426e+000	0.000000e+000	5.000000e+000	
148	4.023876e-002	3.412921e+000	0.000000e+000	5.000000e+000	
149	4.025432e-002	3.418106e+000	0.000000e+000	5.000000e+000	
150	4.027308e-002	3.424360e+000	0.000000e+000	5.000000e+000	
151	4.030092e-002	3.433640e+000	0.000000e+000	5.000000e+000	
152	4.035046e-002	3.450153e+000	0.000000e+000	5.000000e+000	
153	4.044953e-002	3.483177e+000	0.000000e+000	5.000000e+000	
154	4.064768e-002	3.549227e+000	0.000000e+000	5.000000e+000	
155	4.104398e-002	3.681325e+000	0.000000e+000	5.000000e+000	
156	4.183657e-002	3.945522e+000	0.000000e+000	5.000000e+000	
157	4.342175e-002	4.473916e+000	0.000000e+000	5.000000e+000	
158	4.500000e-002	0.000000e+000	0.000000e+000	5.000000e+000	
159	4.531704e-002	1.056788e-001	0.000000e+000	5.000000e+000	
160	4.595111e-002	3.170365e-001	0.000000e+000	5.000000e+000	
161	4.721926e-002	7.397519e-001	0.000000e+000	5.000000e+000	
162	4.975555e-002	1.585183e+000	0.000000e+000	5.000000e+000	
163	5.482813e-002	3.276044e+000	0.000000e+000	5.000000e+000	
164	5.482814e-002	3.276045e+000	0.000000e+000	5.000000e+000	
165	5.482814e-002	3.276045e+000	0.000000e+000	4.500000e+000	
166	5.482814e-002	3.276045e+000	0.000000e+000	3.500000e+000	
167	5.482814e-002	3.276046e+000	0.000000e+000	1.500000e+000	
168	5.482814e-002	3.276046e+000	0.000000e+000	2.631785e-009	
169	5.482814e-002	3.276046e+000	0.000000e+000	0.000000e+000	
170	5.482814e-002	3.276046e+000	0.000000e+000	0.000000e+000	

Index   time            ?               gnd             net-_r2-pad2_   
--------------------------------------------------------------------------------
171	5.482814e-002	3.276046e+000	0.000000e+000	0.000000e+000	
172	5.482814e-002	3.276046e+000	0.000000e+000	0.000000e+000	
173	5.482814e-002	3.276046e+000	0.000000e+000	0.000000e+000	
174	5.482814e-002	3.276047e+000	0.000000e+000	0.000000e+000	
175	5.482815e-002	3.276049e+000	0.000000e+000	0.000000e+000	
176	5.482816e-002	3.276052e+000	0.000000e+000	0.000000e+000	
177	5.482818e-002	3.276059e+000	0.000000e+000	0.000000e+000	
178	5.482822e-002	3.276073e+000	0.000000e+000	0.000000e+000	
179	5.482830e-002	3.276100e+000	0.000000e+000	0.000000e+000	
180	5.482846e-002	3.276155e+000	0.000000e+000	0.000000e+000	
181	5.482879e-002	3.276264e+000	0.000000e+000	0.000000e+000	
182	5.482945e-002	3.276483e+000	0.000000e+000	0.000000e+000	
183	5.483076e-002	3.276919e+000	0.000000e+000	0.000000e+000	
184	5.483338e-002	3.277793e+000	0.000000e+000	0.000000e+000	
185	5.483862e-002	3.279541e+000	0.000000e+000	0.000000e+000	
186	5.484911e-002	3.283036e+000	0.000000e+000	0.000000e+000	
187	5.486407e-002	3.288023e+000	0.000000e+000	0.000000e+000	
188	5.488239e-002	3.294132e+000	0.000000e+000	0.000000e+000	
189	5.490898e-002	3.302993e+000	0.000000e+000	0.000000e+000	
190	5.495652e-002	3.318838e+000	0.000000e+000	0.000000e+000	
191	5.505159e-002	3.350530e+000	0.000000e+000	0.000000e+000	
192	5.524174e-002	3.413912e+000	0.000000e+000	0.000000e+000	
193	5.562203e-002	3.540677e+000	0.000000e+000	0.000000e+000	
194	5.638262e-002	3.794207e+000	0.000000e+000	0.000000e+000	
195	5.790380e-002	4.301266e+000	0.000000e+000	0.000000e+000	
196	6.000000e-002	0.000000e+000	0.000000e+000	0.000000e+000	
197	6.030424e-002	1.014119e-001	0.000000e+000	0.000000e+000	
198	6.091271e-002	3.042356e-001	0.000000e+000	0.000000e+000	
199	6.212965e-002	7.098830e-001	0.000000e+000	0.000000e+000	
200	6.456353e-002	1.521178e+000	0.000000e+000	0.000000e+000	
201	6.943130e-002	3.143768e+000	0.000000e+000	0.000000e+000	
202	6.943131e-002	3.143769e+000	0.000000e+000	0.000000e+000	
203	6.943131e-002	3.143769e+000	0.000000e+000	5.000000e-001	
204	6.943131e-002	3.143769e+000	0.000000e+000	1.500000e+000	
205	6.943131e-002	3.143769e+000	0.000000e+000	3.500000e+000	
206	6.943131e-002	3.143769e+000	0.000000e+000	5.000000e+000	
207	6.943131e-002	3.143769e+000	0.000000e+000	5.000000e+000	
208	6.943131e-002	3.143769e+000	0.000000e+000	5.000000e+000	
209	6.943131e-002	3.143769e+000	0.000000e+000	5.000000e+000	
210	6.943131e-002	3.143769e+000	0.000000e+000	5.000000e+000	
211	6.943131e-002	3.143769e+000	0.000000e+000	5.000000e+000	
212	6.943131e-002	3.143770e+000	0.000000e+000	5.000000e+000	
213	6.943131e-002	3.143770e+000	0.000000e+000	5.000000e+000	
214	6.943131e-002	3.143770e+000	0.000000e+000	5.000000e+000	
215	6.943131e-002	3.143770e+000	0.000000e+000	5.000000e+000	
216	6.943131e-002	3.143770e+000	0.000000e+000	5.000000e+000	
217	6.943131e-002	3.143770e+000	0.000000e+000	5.000000e+000	
218	6.943131e-002	3.143770e+000	0.000000e+000	5.000000e+000	
219	6.943131e-002	3.143770e+000	0.000000e+000	5.000000e+000	
220	6.943131e-002	3.143770e+000	0.000000e+000	5.000000e+000	
221	6.943131e-002	3.143770e+000	0.000000e+000	5.000000e+000	
222	6.943131e-002	3.143770e+000	0.000000e+000	5.000000e+000	
223	6.943131e-002	3.143770e+000	0.000000e+000	5.000000e+000	
224	6.943131e-002	3.143770e+000	0.000000e+000	5.000000e+000	
225	6.943131e-002	3.143770e+000	0.000000e+000	5.000000e+000	
226	6.943131e-002	3.143771e+000	0.000000e+000	5.000000e+000	
227	6.943131e-002	3.143771e+000	0.000000e+000	5.000000e+000	
228	6.943131e-002	3.143771e+000	0.000000e+000	5.000000e+000	

Index   time            ?               gnd             net-_r2-pad2_   
--------------------------------------------------------------------------------
229	6.943131e-002	3.143771e+000	0.000000e+000	5.000000e+000	
230	6.943132e-002	3.143772e+000	0.000000e+000	5.000000e+000	
231	6.943132e-002	3.143774e+000	0.000000e+000	5.000000e+000	
232	6.943133e-002	3.143777e+000	0.000000e+000	5.000000e+000	
233	6.943135e-002	3.143784e+000	0.000000e+000	5.000000e+000	
234	6.943139e-002	3.143798e+000	0.000000e+000	5.000000e+000	
235	6.943148e-002	3.143825e+000	0.000000e+000	5.000000e+000	
236	6.943164e-002	3.143880e+000	0.000000e+000	5.000000e+000	
237	6.943197e-002	3.143989e+000	0.000000e+000	5.000000e+000	
238	6.943262e-002	3.144207e+000	0.000000e+000	5.000000e+000	
239	6.943393e-002	3.144644e+000	0.000000e+000	5.000000e+000	
240	6.943655e-002	3.145518e+000	0.000000e+000	5.000000e+000	
241	6.944180e-002	3.147266e+000	0.000000e+000	5.000000e+000	
242	6.945228e-002	3.150761e+000	0.000000e+000	5.000000e+000	
243	6.946662e-002	3.155540e+000	0.000000e+000	5.000000e+000	
244	6.948448e-002	3.161493e+000	0.000000e+000	5.000000e+000	
245	6.950975e-002	3.169918e+000	0.000000e+000	5.000000e+000	
246	6.955521e-002	3.185072e+000	0.000000e+000	5.000000e+000	
247	6.964613e-002	3.215378e+000	0.000000e+000	5.000000e+000	
248	6.982798e-002	3.275992e+000	0.000000e+000	5.000000e+000	
249	7.019166e-002	3.397219e+000	0.000000e+000	5.000000e+000	
250	7.091902e-002	3.639673e+000	0.000000e+000	5.000000e+000	
251	7.237374e-002	4.124581e+000	0.000000e+000	5.000000e+000	
252	7.500000e-002	0.000000e+000	0.000000e+000	5.000000e+000	
253	7.529094e-002	9.698163e-002	0.000000e+000	5.000000e+000	
254	7.587283e-002	2.909449e-001	0.000000e+000	5.000000e+000	
255	7.703661e-002	6.788714e-001	0.000000e+000	5.000000e+000	
256	7.936417e-002	1.454724e+000	0.000000e+000	5.000000e+000	
257	8.401929e-002	3.006431e+000	0.000000e+000	5.000000e+000	
258	8.401929e-002	3.006432e+000	0.000000e+000	5.000000e+000	
259	8.401929e-002	3.006432e+000	0.000000e+000	4.500000e+000	
260	8.401930e-002	3.006432e+000	0.000000e+000	3.500000e+000	
261	8.401930e-002	3.006432e+000	0.000000e+000	1.500000e+000	
262	8.401930e-002	3.006432e+000	0.000000e+000	2.631785e-009	
263	8.401930e-002	3.006432e+000	0.000000e+000	0.000000e+000	
264	8.401930e-002	3.006432e+000	0.000000e+000	0.000000e+000	
265	8.401930e-002	3.006432e+000	0.000000e+000	0.000000e+000	
266	8.401930e-002	3.006432e+000	0.000000e+000	0.000000e+000	
267	8.401930e-002	3.006433e+000	0.000000e+000	0.000000e+000	
268	8.401930e-002	3.006434e+000	0.000000e+000	0.000000e+000	
269	8.401931e-002	3.006435e+000	0.000000e+000	0.000000e+000	
270	8.401932e-002	3.006439e+000	0.000000e+000	0.000000e+000	
271	8.401934e-002	3.006446e+000	0.000000e+000	0.000000e+000	
272	8.401938e-002	3.006459e+000	0.000000e+000	0.000000e+000	
273	8.401946e-002	3.006487e+000	0.000000e+000	0.000000e+000	
274	8.401962e-002	3.006541e+000	0.000000e+000	0.000000e+000	
275	8.401995e-002	3.006650e+000	0.000000e+000	0.000000e+000	
276	8.402061e-002	3.006869e+000	0.000000e+000	0.000000e+000	
277	8.402192e-002	3.007306e+000	0.000000e+000	0.000000e+000	
278	8.402454e-002	3.008180e+000	0.000000e+000	0.000000e+000	
279	8.402978e-002	3.009927e+000	0.000000e+000	0.000000e+000	
280	8.404027e-002	3.013422e+000	0.000000e+000	0.000000e+000	
281	8.405396e-002	3.017988e+000	0.000000e+000	0.000000e+000	
282	8.407134e-002	3.023779e+000	0.000000e+000	0.000000e+000	
283	8.409529e-002	3.031762e+000	0.000000e+000	0.000000e+000	
284	8.413865e-002	3.046216e+000	0.000000e+000	0.000000e+000	
285	8.422537e-002	3.075122e+000	0.000000e+000	0.000000e+000	
286	8.439880e-002	3.132935e+000	0.000000e+000	0.000000e+000	

Index   time            ?               gnd             net-_r2-pad2_   
--------------------------------------------------------------------------------
287	8.474568e-002	3.248561e+000	0.000000e+000	0.000000e+000	
288	8.543944e-002	3.479812e+000	0.000000e+000	0.000000e+000	
289	8.682694e-002	3.942314e+000	0.000000e+000	0.000000e+000	
290	8.960196e-002	4.867320e+000	0.000000e+000	0.000000e+000	
291	9.000000e-002	5.000000e+000	0.000000e+000	0.000000e+000	
292	9.055500e-002	1.850010e-001	0.000000e+000	0.000000e+000	
293	9.166501e-002	5.550031e-001	0.000000e+000	0.000000e+000	
294	9.388502e-002	1.295007e+000	0.000000e+000	0.000000e+000	
295	9.832505e-002	2.775016e+000	0.000000e+000	0.000000e+000	
296	9.832505e-002	2.775017e+000	0.000000e+000	0.000000e+000	
297	9.832505e-002	2.775017e+000	0.000000e+000	5.000000e-001	
298	9.832505e-002	2.775017e+000	0.000000e+000	1.500000e+000	
299	9.832505e-002	2.775017e+000	0.000000e+000	3.500000e+000	
300	9.832505e-002	2.775017e+000	0.000000e+000	5.000000e+000	
301	9.832505e-002	2.775017e+000	0.000000e+000	5.000000e+000	
302	9.832505e-002	2.775017e+000	0.000000e+000	5.000000e+000	
303	9.832505e-002	2.775017e+000	0.000000e+000	5.000000e+000	
304	9.832505e-002	2.775017e+000	0.000000e+000	5.000000e+000	
